(1743455379.974764) can0 00002968#7D00000000002000
(1743455379.994760) can0 00002968#7D00000000002000
(1743455380.014750) can0 00002968#7D00000000002000
(1743455380.034753) can0 00002968#7D00000000002000
(1743455380.054757) can0 00002968#7D00000000002000
(1743455380.074742) can0 00002968#7D00000000002000
(1743455380.094745) can0 00002968#7D00000000002000
(1743455380.114745) can0 00002968#7D00000000002000
(1743455380.134751) can0 00002968#7D00FFFF00002000
(1743455380.154744) can0 00002968#7D00000000002000
(1743455380.174748) can0 00002968#7D00000000002000
(1743455380.194743) can0 00002968#7D00000000002000
(1743455380.214745) can0 00002968#7D00000100002000
(1743455380.234742) can0 00002968#7D00000000002000
(1743455380.254741) can0 00002968#7D00000000002000
(1743455380.274742) can0 00002968#7D00000000002000
(1743455380.294741) can0 00002968#7D00000000002000
(1743455380.314742) can0 00002968#7D00FFFF00002000
(1743455380.334741) can0 00002968#7D00000000002000
(1743455380.354758) can0 00002968#7D00000000002000
(1743455380.374752) can0 00002968#7D00000000002000
(1743455380.394758) can0 00002968#7D00000000002000
(1743455380.414739) can0 00002968#7D00000000002000
(1743455380.434736) can0 00002968#7D00FFFF00002000
(1743455380.454746) can0 00002968#7D00000000002000
(1743455380.474740) can0 00002968#7D00000000002000
(1743455380.494731) can0 00002968#7D00000000002000
(1743455380.514738) can0 00002968#7D00000000002000
(1743455380.534732) can0 00002968#7D00000000002000
(1743455380.554748) can0 00002968#7D00000000002000
(1743455380.574745) can0 00002968#7D00000000002000
(1743455380.594743) can0 00002968#7D00000000002000
(1743455380.614743) can0 00002968#7D00000000002000
(1743455380.634739) can0 00002968#7D00000000002000
(1743455380.654728) can0 00002968#7D00000000002000
(1743455380.674750) can0 00002968#7D00000100002000
(1743455380.694738) can0 00002968#7D00000000002000
(1743455380.714739) can0 00002968#7D00000000002000
(1743455380.734731) can0 00002968#7D00000000002000
(1743455380.754738) can0 00002968#7D00000000002000
(1743455380.774902) can0 00002968#7D00000000002000
(1743455380.794908) can0 00002968#7D00000000002000
(1743455380.814906) can0 00002968#7D00000000002000
(1743455380.834907) can0 00002968#7D00000000002000
(1743455380.854909) can0 00002968#7D00000000002000
(1743455380.874912) can0 00002968#7D00000000002000
(1743455380.894922) can0 00002968#7D00000000002000
(1743455380.914904) can0 00002968#7D00000000002000
(1743455380.934905) can0 00002968#7D00000000002000
(1743455380.954917) can0 00002968#7D00000000002000
(1743455380.974948) can0 00002968#7D00000000002000
(1743455380.994930) can0 00002968#7D00000000002000
(1743455381.014924) can0 00002968#7D00000100002000
(1743455381.034925) can0 00002968#7D00000000002000
(1743455381.054926) can0 00002968#7D00FFFF00002000
(1743455381.074905) can0 00002968#7D00000000002000
(1743455381.094909) can0 00002968#7D00000000002000
(1743455381.114903) can0 00002968#7D00000000002000
(1743455381.134899) can0 00002968#7D00000000002000
(1743455381.154901) can0 00002968#7D00000000002000
(1743455381.174900) can0 00002968#7D00000000002000
(1743455381.194900) can0 00002968#7D00000000002000
(1743455381.214899) can0 00002968#7D00000000002000
(1743455381.234900) can0 00002968#7D00000000002000
(1743455381.254916) can0 00002968#7D00000000002000
(1743455381.274898) can0 00002968#7D00000000002000
(1743455381.294903) can0 00002968#7D00000000002000
(1743455381.314899) can0 00002968#7D00000100002000
(1743455381.334894) can0 00002968#7D00000000002000
(1743455381.354897) can0 00002968#7D00000000002000
(1743455381.374897) can0 00002968#7D00000000002000
(1743455381.394895) can0 00002968#7D00FFFF00002000
(1743455381.414896) can0 00002968#7D00000000002000
(1743455381.434894) can0 00002968#7D00000000002000
(1743455381.454895) can0 00002968#7D00000000002000
(1743455381.474946) can0 00002968#7D00000000002000
(1743455381.494939) can0 00002968#7D00000000002000
(1743455381.514938) can0 00002968#7D00000000002000
(1743455381.534935) can0 00002968#7D00000000002000
(1743455381.554936) can0 00002968#7D00FFFF00002000
(1743455381.574936) can0 00002968#7D00000000002000
(1743455381.594895) can0 00002968#7D00000000002000
(1743455381.614891) can0 00002968#7D00000000002000
(1743455381.634891) can0 00002968#7D00000000002000
(1743455381.654898) can0 00002968#7D00000000002000
(1743455381.674891) can0 00002968#7D00000000002000
(1743455381.694897) can0 00002968#7D00000000002000
(1743455381.714896) can0 00002968#7D00000000002000
(1743455381.734890) can0 00002968#7D00000000002000
(1743455381.754890) can0 00002968#7D00000000002000
(1743455381.774888) can0 00002968#7D00000000002000
(1743455381.794888) can0 00002968#7D00000000002000
(1743455381.814887) can0 00002968#7D00000000002000
(1743455381.834886) can0 00002968#7D00000000002000
(1743455381.854888) can0 00002968#7D00000000002000
(1743455381.874886) can0 00002968#7D00000000002000
(1743455381.894887) can0 00002968#7D00000000002000
(1743455381.914886) can0 00002968#7D00000000002000
(1743455381.934887) can0 00002968#7D00000000002000
(1743455381.954886) can0 00002968#7D00000000002000
(1743455381.974884) can0 00002968#7D00000000002000
(1743455381.994906) can0 00002968#7D00000000002000
(1743455382.014884) can0 00002968#7D00000000002000
(1743455382.034881) can0 00002968#7D00000000002000
(1743455382.054884) can0 00002968#7D00000000002000
(1743455382.074883) can0 00002968#7D00000000002000
(1743455382.094890) can0 00002968#7D00000000002000
(1743455382.114882) can0 00002968#7D00000000002000
(1743455382.134878) can0 00002968#7D00000300632000
(1743455382.154877) can0 00002968#7D00015E00E12000
(1743455382.174944) can0 00002968#7D00036F00E22000
(1743455382.194921) can0 00002968#7D00059000DA2000
(1743455382.214924) can0 00002968#7D0007B200DA2000
(1743455382.234876) can0 00002968#7D0009CD00E42000
(1743455382.254877) can0 00002968#7D000BF300EA2000
(1743455382.274879) can0 00002968#7D000E2000E82000
(1743455382.294876) can0 00002968#7D00106200F22000
(1743455382.314874) can0 00002968#7D00129F00BC2000
(1743455382.334872) can0 00002968#7D0014E901942000
(1743455382.354873) can0 00002968#7D00173A00D12000
(1743455382.374871) can0 00002968#7D0019A501122000
(1743455382.394871) can0 00002968#7D001C3300A72000
(1743455382.414869) can0 00002968#7D001EB4014A2000
(1743455382.434871) can0 00002968#7D00215300882000
(1743455382.454879) can0 00002968#7D0022DF00BD2000
(1743455382.474928) can0 00002968#7D0022E4FFED2000
(1743455382.494928) can0 00002968#7D0022EDFFC42000
(1743455382.514876) can0 00002968#7D0022E9FFF02000
(1743455382.534875) can0 00002968#7D0022E100362000
(1743455382.554869) can0 00002968#7D0022F7FF622000
(1743455382.574868) can0 00002968#7D0022EB00152000
(1743455382.594871) can0 00002968#7D0022DE008F2000
(1743455382.614871) can0 00002968#7D0022FC00C82000
(1743455382.634914) can0 00002968#7D0022DFFFA62000
(1743455382.654869) can0 00002968#7D0022D4FFE82000
(1743455382.674865) can0 00002968#7D0022F6FF172000
(1743455382.694867) can0 00002968#7D0022D7FFB32000
(1743455382.714911) can0 00002968#7D0022E000E22000
(1743455382.734912) can0 00002968#7D00230000D32000
(1743455382.754865) can0 00002968#7D0022F5FF582000
(1743455382.774865) can0 00002968#7D0022C3FF8C2000
(1743455382.794866) can0 00002968#7D0022DBFF8B2000
(1743455382.814862) can0 00002968#7D0022DA00DB2000
(1743455382.834863) can0 00002968#7D0022F400CF2000
(1743455382.854912) can0 00002968#7D0022CC00EE2000
(1743455382.874915) can0 00002968#7D0022E0FF812000
(1743455382.894914) can0 00002968#7D0022CEFF782000
(1743455382.914914) can0 00002968#7D0022FFFF802000
(1743455382.934861) can0 00002968#7D0022EF007F2000
(1743455382.954861) can0 00002968#7D0022DA01E82000
(1743455382.974861) can0 00002968#7D00230400052000
(1743455382.994916) can0 00002968#7D0022D700032000
(1743455383.014861) can0 00002968#7D0022FFFFBF2000
(1743455383.034859) can0 00002968#7D0022E500172000
(1743455383.054859) can0 00002968#7D0022EA005C2000
(1743455383.074861) can0 00002968#7D00230100132000
(1743455383.094859) can0 00002968#7D0022E300132000
(1743455383.114858) can0 00002968#7D0022E1FFB62000
(1743455383.134859) can0 00002968#7D0022FFFFFE2000
(1743455383.154858) can0 00002968#7D0022D2FF182000
(1743455383.174859) can0 00002968#7D0022CCFFC32000
(1743455383.194916) can0 00002968#7D0022F300882000
(1743455383.214904) can0 00002968#7D002310001C2000
(1743455383.234858) can0 00002968#7D0022E7FFF02000
(1743455383.254913) can0 00002968#7D0022DAFF872000
(1743455383.274899) can0 00002968#7D0022EDFF0D2000
(1743455383.294857) can0 00002968#7D0022EBFF6D2000
(1743455383.314857) can0 00002968#7D0022CD00BD2000
(1743455383.334873) can0 00002968#7D0022D4010C2000
(1743455383.354856) can0 00002968#7D0022FFFFC32000
(1743455383.374855) can0 00002968#7D0022F3FF912000
(1743455383.394855) can0 00002968#7D0022F0FFF12000
(1743455383.414851) can0 00002968#7D0022DA00B12000
(1743455383.434852) can0 00002968#7D0022EF00EB2000
(1743455383.454902) can0 00002968#7D0022DAFFAE2000
(1743455383.474896) can0 00002968#7D0022D7FFCC2000
(1743455383.494896) can0 00002968#7D0022F000032000
(1743455383.514849) can0 00002968#7D0022DEFF172000
(1743455383.534904) can0 00002968#7D0022DEFFCD2000
(1743455383.554851) can0 00002968#7D0022F5001A2000
(1743455383.574849) can0 00002968#7D00231500AB2000
(1743455383.594853) can0 00002968#7D0022FBFFFB2000
(1743455383.614849) can0 00002968#7D0022E5FFB32000
(1743455383.634848) can0 00002968#7D0022DFFF482000
(1743455383.654846) can0 00002968#7D0022DDFFF12000
(1743455383.674845) can0 00002968#7D0022E200FD2000
(1743455383.694854) can0 00002968#7D002306FFD42000
(1743455383.714852) can0 00002968#7D0022F800162000
(1743455383.734846) can0 00002968#7D0022D300092000
(1743455383.754846) can0 00002968#7D0022D400612000
(1743455383.774849) can0 00002968#7D002300FFAB1F00
(1743455383.794850) can0 00002968#7D0022D3FFCC1F00
(1743455383.814859) can0 00002968#7D0022EEFFCD1F00
(1743455383.834851) can0 00002968#7D0022FAFFBC2000
(1743455383.854902) can0 00002968#7D0022EA00482000
(1743455383.874840) can0 00002968#7D0022E1FF2F2000
(1743455383.894842) can0 00002968#7D0022E2FFC62000
(1743455383.914843) can0 00002968#7D002301FFB32000
(1743455383.934841) can0 00002968#7D0022FE00D42000
(1743455383.954840) can0 00002968#7D0022D100712000
(1743455383.974842) can0 00002968#7D0022DDFF901F00
(1743455383.994840) can0 00002968#7D0022D4FF751F00
(1743455384.014842) can0 00002968#7D002300FF3D2000
(1743455384.034837) can0 00002968#7D0022DD00521F00
(1743455384.054839) can0 00002968#7D0022EE01901F00
(1743455384.074845) can0 00002968#7D0022FB003F1F00
(1743455384.094841) can0 00002968#7D0022DF00341F00
(1743455384.114841) can0 00002968#7D002304FFFD1F00
(1743455384.134888) can0 00002968#7D0022EB00221F00
(1743455384.154894) can0 00002968#7D0022DC00781F00
(1743455384.174888) can0 00002968#7D0022FDFFE62000
(1743455384.194893) can0 00002968#7D0022F0006D2000
(1743455384.214890) can0 00002968#7D0022DCFFFE1F00
(1743455384.234838) can0 00002968#7D0022F100151F00
(1743455384.254840) can0 00002968#7D0022E7FF031F00
(1743455384.274836) can0 00002968#7D0022D5FFAA1F00
(1743455384.294837) can0 00002968#7D002302FFE61F00
(1743455384.314837) can0 00002968#7D0022F701071F00
(1743455384.334836) can0 00002968#7D0022CD00291F00
(1743455384.354842) can0 00002968#7D0022FE00261F00
(1743455384.374853) can0 00002968#7D0022E6FEFD1F00
(1743455384.394836) can0 00002968#7D0022E9FF3E2000
(1743455384.414882) can0 00002968#7D0022FC00221F00
(1743455384.434878) can0 00002968#7D0022F501411F00
(1743455384.454878) can0 00002968#7D0022E2FFF41F00
(1743455384.474938) can0 00002968#7D0022EFFFFE1F00
(1743455384.494945) can0 00002968#7D0022D2FFD21F00
(1743455384.514946) can0 00002968#7D0022D500CB1F00
(1743455384.534945) can0 00002968#7D00230900141F00
(1743455384.554953) can0 00002968#7D00230BFFF21F00
(1743455384.574952) can0 00002968#7D0022FC00431F00
(1743455384.594948) can0 00002968#7D0022D2FFAD1F00
(1743455384.614934) can0 00002968#7D0022E300061F00
(1743455384.634936) can0 00002968#7D0022F3FF331F00
(1743455384.654936) can0 00002968#7D0022D3000E1F00
(1743455384.674994) can0 00002968#7D002302001C1F00
(1743455384.694943) can0 00002968#7D00231C00CF1F00
(1743455384.714936) can0 00002968#7D0022DE01141F00
(1743455384.734936) can0 00002968#7D002300000E1F00
(1743455384.754934) can0 00002968#7D0022E7FEF51F00
(1743455384.774934) can0 00002968#7D002305FFC01F00
(1743455384.794949) can0 00002968#7D0022F9FFFA1F00
(1743455384.814934) can0 00002968#7D0022E201581F00
(1743455384.834930) can0 00002968#7D0022E4FFDE1F00
(1743455384.854988) can0 00002968#7D0022EEFFE31F00
(1743455384.874984) can0 00002968#7D0022DDFFBB1F00
(1743455384.894953) can0 00002968#7D0022CF006B1F00
(1743455384.914934) can0 00002968#7D0022FC00341F00
(1743455384.934933) can0 00002968#7D0022FF000A1F00
(1743455384.954929) can0 00002968#7D0022EF00261F00
